
T5138 000:255 SEGGER J-Link V6.00e Log File (0001ms, 0045ms total)
T5138 000:255 DLL Compiled: Aug  4 2016 09:37:38 (0001ms, 0045ms total)
T5138 000:255 Logging started @ 2017-08-07 11:13 (0001ms, 0045ms total)
T5138 000:256 JLINK_SetWarnOutHandler(...) (0000ms, 0045ms total)
T5138 000:256 JLINK_OpenEx(...)
Firmware: J-Link V9 compiled Dec 16 2016 15:34:10
Hardware: V9.40
S/N: 36410082
Feature(s): RDI, GDB, FlashDL, FlashBP, JFlash  returns O.K. (0033ms, 0078ms total)
T5138 000:289 JLINK_SetErrorOutHandler(...) (0000ms, 0078ms total)
T5138 000:289 JLINK_ExecCommand("ProjectFile = "F:\rtthread-github\rt-thread\bsp\tm4c129x\JLinkSettings.ini"", ...).   returns 0x00 (0139ms, 0217ms total)
T5138 000:429 JLINK_ExecCommand("Device = TM4C129EKCPDT", ...). Device "TM4C129EKCPDT" selected.  returns 0x00 (0002ms, 0219ms total)
T5138 000:431 JLINK_ExecCommand("DisableConnectionTimeout", ...).   returns 0x01 (0000ms, 0219ms total)
T5138 000:431 JLINK_GetHardwareVersion()  returns 0x16F30 (0000ms, 0219ms total)
T5138 000:431 JLINK_GetDLLVersion()  returns 60005 (0000ms, 0219ms total)
T5138 000:431 JLINK_GetFirmwareString(...) (0000ms, 0219ms total)
T5138 000:433 JLINK_GetDLLVersion()  returns 60005 (0000ms, 0219ms total)
T5138 000:433 JLINK_GetCompileDateTime() (0000ms, 0219ms total)
T5138 000:434 JLINK_GetFirmwareString(...) (0000ms, 0219ms total)
T5138 000:435 JLINK_GetHardwareVersion()  returns 0x16F30 (0000ms, 0219ms total)
T5138 000:445 JLINK_TIF_Select(JLINKARM_TIF_SWD)  returns 0x00 (0005ms, 0224ms total)
T5138 000:450 JLINK_SetSpeed(5000) (0001ms, 0225ms total)
T5138 000:451 JLINK_GetId() >0x108 TIF>Found SWD-DP with ID 0x2BA01477 >0x0D TIF> >0x28 TIF> >0x0D TIF> >0x28 TIF> >0x0D TIF> >0x28 TIF> >0x0D TIF> >0x28 TIF> >0x0D TIF> >0x21 TIF> >0x0D TIF> >0x28 TIF> >0x0D TIF> >0x28 TIF> >0x0D TIF> >0x21 TIF> >0x0D TIF> >0x21 TIF> >0x0D TIF> >0x21 TIF>AP-IDR: 0x24770011, Type: AHB-AP >0x0D TIF> >0x28 TIF> >0x0D TIF> >0x28 TIF> >0x0D TIF> >0x28 TIF> >0x0D TIF> >0x21 TIF> >0x0D TIF> >0x21 TIF> >0x0D TIF> >0x28 TIF> >0x0D TIF> >0x21 TIF> >0x0D TIF> >0x21 TIF>
Found Cortex-M4 r0p1, Little endian. -- CPU_ReadMem(4 bytes @ 0xE000EDF0) -- CPU_ReadMem(4 bytes @ 0xE0002000)FPUnit: 6 code (BP) slots and 2 literal slots -- CPU_ReadMem(4 bytes @ 0xE000EDFC) -- CPU_ReadMem(4 bytes @ 0xE0001000) -- CPU_WriteMem(4 bytes @ 0xE0001000) -- CPU_ReadMem(4 bytes @ 0xE000ED88) -- CPU_WriteMem(4 bytes @ 0xE000ED88) -- CPU_ReadMem(4 bytes @ 0xE000ED88) -- CPU_WriteMem(4 bytes @ 0xE000ED88)CoreSight components:ROMTbl 0 @ E00FF000 -- CPU_ReadMem(16 bytes @ 0xE00FF000)
 -- CPU_ReadMem(16 bytes @ 0xE000EFF0) -- CPU_ReadMem(16 bytes @ 0xE000EFE0)ROMTbl 0 [0]: FFF0F000, CID: B105E00D, PID: 000BB00C SCS -- CPU_ReadMem(16 bytes @ 0xE0001FF0) -- CPU_ReadMem(16 bytes @ 0xE0001FE0)ROMTbl 0 [1]: FFF02000, CID: B105E00D, PID: 003BB002 DWT -- CPU_ReadMem(16 bytes @ 0xE0002FF0) -- CPU_ReadMem(16 bytes @ 0xE0002FE0)ROMTbl 0 [2]: FFF03000, CID: B105E00D, PID: 002BB003 FPB -- CPU_ReadMem(16 bytes @ 0xE0000FF0) -- CPU_ReadMem(16 bytes @ 0xE0000FE0)
ROMTbl 0 [3]: FFF01000, CID: B105E00D, PID: 003BB001 ITM -- CPU_ReadMem(16 bytes @ 0xE00FF010) -- CPU_ReadMem(16 bytes @ 0xE0040FF0) -- CPU_ReadMem(16 bytes @ 0xE0040FE0)ROMTbl 0 [4]: FFF41000, CID: B105900D, PID: 000BB9A1 TPIU -- CPU_ReadMem(16 bytes @ 0xE0041FF0) -- CPU_ReadMem(16 bytes @ 0xE0041FE0)ROMTbl 0 [5]: FFF42000, CID: B105900D, PID: 000BB925 ETM -- CPU is running -- CPU_ReadMem(4 bytes @ 0x400FE0F0) >0x0D TIF> >0x21 TIF>  returns 0x2BA01477 (0111ms, 0336ms total)
T5138 000:562 JLINK_GetDLLVersion()  returns 60005 (0000ms, 0336ms total)
T5138 000:562 JLINK_CORE_GetFound()  returns 0xE0000FF (0000ms, 0336ms total)
T5138 000:562 JLINK_GetDebugInfo(0x100) -- Value=0xE00FF000  returns 0x00 (0000ms, 0336ms total)
T5138 000:566 JLINK_GetDebugInfo(0x100) -- Value=0xE00FF000  returns 0x00 (0000ms, 0336ms total)
T5138 000:566 JLINK_GetDebugInfo(0x101) -- Value=0xE0041000  returns 0x00 (0000ms, 0336ms total)
T5138 000:566 JLINK_GetDebugInfo(0x102) -- Value=0x00000000  returns 0x00 (0000ms, 0336ms total)
T5138 000:566 JLINK_GetDebugInfo(0x103) -- Value=0xE0040000  returns 0x00 (0000ms, 0336ms total)
T5138 000:566 JLINK_GetDebugInfo(0x104) -- Value=0xE0000000  returns 0x00 (0000ms, 0336ms total)
T5138 000:566 JLINK_GetDebugInfo(0x105) -- Value=0xE0001000  returns 0x00 (0000ms, 0336ms total)
T5138 000:566 JLINK_GetDebugInfo(0x106) -- Value=0xE0002000  returns 0x00 (0000ms, 0336ms total)
T5138 000:566 JLINK_GetDebugInfo(0x107) -- Value=0xE000E000  returns 0x00 (0000ms, 0336ms total)
T5138 000:566 JLINK_GetDebugInfo(0x10C) -- Value=0xE000EDF0  returns 0x00 (0000ms, 0336ms total)
T5138 000:566 JLINK_ReadMemU32(0xE000EF40, 0x0001 Items, ...) -- CPU is running -- CPU_ReadMem(4 bytes @ 0xE000EF40) - Data: 21 00 11 10  returns 0x01 (0002ms, 0338ms total)
T5138 000:568 JLINK_ReadMemU32(0xE000EF44, 0x0001 Items, ...) -- CPU is running -- CPU_ReadMem(4 bytes @ 0xE000EF44) - Data: 11 00 00 11  returns 0x01 (0001ms, 0339ms total)
T5138 000:569 JLINK_ReadMemU32(0xE000ED00, 0x0001 Items, ...) -- CPU is running -- CPU_ReadMem(4 bytes @ 0xE000ED00) - Data: 41 C2 0F 41  returns 0x01 (0001ms, 0340ms total)
T5138 000:570 JLINK_SetResetType(JLINKARM_RESET_TYPE_NORMAL)  returns JLINKARM_RESET_TYPE_NORMAL (0000ms, 0340ms total)
T5138 000:570 JLINK_Reset() -- CPU is running -- CPU_WriteMem(4 bytes @ 0xE000EDF0) -- CPU is running -- CPU_WriteMem(4 bytes @ 0xE000EDFC) >0x35 TIF> -- CPU is running -- CPU_WriteMem(4 bytes @ 0xE000ED0C) -- CPU is running -- CPU_ReadMem(4 bytes @ 0xE000EDF0) -- CPU is running -- CPU_ReadMem(4 bytes @ 0xE000EDF0) -- CPU is running -- CPU_WriteMem(4 bytes @ 0xE000EDF0) -- CPU is running -- CPU_WriteMem(4 bytes @ 0xE000EDFC) -- CPU is running -- CPU_ReadMem(4 bytes @ 0xE000EDF0)
 -- CPU_ReadMem(4 bytes @ 0x400FE0F0) -- CPU_WriteMem(4 bytes @ 0xE0002000) -- CPU_ReadMem(4 bytes @ 0xE000EDFC) -- CPU_ReadMem(4 bytes @ 0xE0001000) (0029ms, 0369ms total)
T5138 000:599 JLINK_Halt()  returns 0x00 (0000ms, 0369ms total)
T5138 000:599 JLINK_IsHalted()  returns TRUE (0000ms, 0369ms total)
T5138 000:599 JLINK_ReadMemU32(0xE000EDF0, 0x0001 Items, ...) -- CPU_ReadMem(4 bytes @ 0xE000EDF0) - Data: 03 00 03 00  returns 0x01 (0001ms, 0370ms total)
T5138 000:600 JLINK_WriteU32(0xE000EDF0, 0xA05F0003) -- CPU_WriteMem(4 bytes @ 0xE000EDF0)  returns 0x00 (0001ms, 0371ms total)
T5138 000:601 JLINK_WriteU32(0xE000EDFC, 0x01000000) -- CPU_WriteMem(4 bytes @ 0xE000EDFC)  returns 0x00 (0001ms, 0372ms total)
T5138 000:615 JLINK_GetHWStatus(...)  returns 0x00 (0001ms, 0373ms total)
T5138 000:627 JLINK_GetNumBPUnits(Type = 0xFFFFFF00)  returns 0x06 (0000ms, 0373ms total)
T5138 000:627 JLINK_GetNumBPUnits(Type = 0xF0)  returns 0x2000 (0000ms, 0373ms total)
T5138 000:627 JLINK_GetNumWPUnits()  returns 0x04 (0000ms, 0373ms total)
T5138 000:637 JLINK_GetSpeed()  returns 0xFA0 (0000ms, 0373ms total)
T5138 000:643 JLINK_ReadMemU32(0xE000E004, 0x0001 Items, ...) -- CPU_ReadMem(4 bytes @ 0xE000E004) - Data: 03 00 00 00  returns 0x01 (0001ms, 0374ms total)
T5138 000:644 JLINK_ReadMemU32(0xE000E004, 0x0001 Items, ...) -- CPU_ReadMem(4 bytes @ 0xE000E004) - Data: 03 00 00 00  returns 0x01 (0001ms, 0375ms total)
T5138 000:645 JLINK_WriteMem(0xE0001000, 0x001C Bytes, ...) - Data: 01 00 00 00 00 00 00 00 00 00 00 00 00 00 00 00 ... -- CPU_WriteMem(28 bytes @ 0xE0001000)  returns 0x1C (0001ms, 0376ms total)
T5138 000:646 JLINK_ReadMem (0xE0001000, 0x001C Bytes, ...) -- CPU_ReadMem(28 bytes @ 0xE0001000) - Data: 01 00 00 40 00 00 00 00 00 00 00 00 00 00 00 00 ...  returns 0x00 (0001ms, 0377ms total)
T5138 000:647 JLINK_Halt()  returns 0x00 (0000ms, 0377ms total)
T5138 000:647 JLINK_IsHalted()  returns TRUE (0000ms, 0377ms total)
T5138 000:649 JLINK_WriteMem(0x20000000, 0x0128 Bytes, ...) - Data: 00 BE 0A E0 0D 78 2D 06 68 40 08 24 40 00 00 D3 ... -- CPU_WriteMem(296 bytes @ 0x20000000)  returns 0x128 (0002ms, 0379ms total)
T5138 000:652 JLINK_WriteReg(R0, 0x00000000)  returns 0x00 (0000ms, 0379ms total)
T5138 000:652 JLINK_WriteReg(R1, 0x00B71B00)  returns 0x00 (0000ms, 0379ms total)
T5138 000:652 JLINK_WriteReg(R2, 0x00000001)  returns 0x00 (0000ms, 0379ms total)
T5138 000:652 JLINK_WriteReg(R3, 0x00000000)  returns 0x00 (0000ms, 0379ms total)
T5138 000:652 JLINK_WriteReg(R4, 0x00000000)  returns 0x00 (0000ms, 0379ms total)
T5138 000:652 JLINK_WriteReg(R5, 0x00000000)  returns 0x00 (0000ms, 0379ms total)
T5138 000:652 JLINK_WriteReg(R6, 0x00000000)  returns 0x00 (0000ms, 0379ms total)
T5138 000:652 JLINK_WriteReg(R7, 0x00000000)  returns 0x00 (0000ms, 0379ms total)
T5138 000:652 JLINK_WriteReg(R8, 0x00000000)  returns 0x00 (0000ms, 0379ms total)
T5138 000:652 JLINK_WriteReg(R9, 0x20000124)  returns 0x00 (0000ms, 0379ms total)
T5138 000:652 JLINK_WriteReg(R10, 0x00000000)  returns 0x00 (0000ms, 0379ms total)
T5138 000:652 JLINK_WriteReg(R11, 0x00000000)  returns 0x00 (0000ms, 0379ms total)
T5138 000:652 JLINK_WriteReg(R12, 0x00000000)  returns 0x00 (0000ms, 0379ms total)
T5138 000:652 JLINK_WriteReg(R13 (SP), 0x20001000)  returns 0x00 (0000ms, 0379ms total)
T5138 000:652 JLINK_WriteReg(R14, 0x20000001)  returns 0x00 (0000ms, 0379ms total)
T5138 000:652 JLINK_WriteReg(R15 (PC), 0x20000038)  returns 0x00 (0000ms, 0379ms total)
T5138 000:652 JLINK_WriteReg(XPSR, 0x01000000)  returns 0x00 (0000ms, 0379ms total)
T5138 000:652 JLINK_WriteReg(MSP, 0x20001000)  returns 0x00 (0000ms, 0379ms total)
T5138 000:652 JLINK_WriteReg(PSP, 0x20001000)  returns 0x00 (0000ms, 0379ms total)
T5138 000:652 JLINK_WriteReg(CFBP, 0x00000000)  returns 0x00 (0000ms, 0379ms total)
T5138 000:652 JLINK_SetBPEx(Addr = 0x20000000, Type = 0xFFFFFFF2) -- CPU_ReadMem(2 bytes @ 0x20000000)  returns 0x00000001 (0001ms, 0380ms total)
T5138 000:653 JLINK_Go() -- CPU_WriteMem(2 bytes @ 0x20000000) -- CPU_ReadMem(4 bytes @ 0xE0001000) -- CPU_WriteMem(4 bytes @ 0xE0002008) -- CPU_WriteMem(4 bytes @ 0xE000200C) -- CPU_WriteMem(4 bytes @ 0xE0002010) -- CPU_WriteMem(4 bytes @ 0xE0002014) -- CPU_WriteMem(4 bytes @ 0xE0002018) -- CPU_WriteMem(4 bytes @ 0xE000201C) -- CPU_WriteMem(4 bytes @ 0xE0001004) (0009ms, 0389ms total)
T5138 000:662 JLINK_IsHalted() -- CPU_ReadMem(2 bytes @ 0x20000000)  returns TRUE (0004ms, 0393ms total)
T5138 000:666 JLINK_ReadReg(R15 (PC))  returns 0x20000000 (0000ms, 0389ms total)
T5138 000:666 JLINK_ClrBPEx(BPHandle = 0x00000001)  returns 0x00 (0000ms, 0389ms total)
T5138 000:666 JLINK_ReadReg(R0)  returns 0x00000000 (0000ms, 0389ms total)
T5138 000:666 JLINK_WriteReg(R0, 0x00000000)  returns 0x00 (0000ms, 0389ms total)
T5138 000:666 JLINK_WriteReg(R1, 0x00004000)  returns 0x00 (0000ms, 0389ms total)
T5138 000:666 JLINK_WriteReg(R2, 0x000000FF)  returns 0x00 (0000ms, 0389ms total)
T5138 000:666 JLINK_WriteReg(R3, 0x00000000)  returns 0x00 (0000ms, 0389ms total)
T5138 000:666 JLINK_WriteReg(R4, 0x00000000)  returns 0x00 (0000ms, 0389ms total)
T5138 000:666 JLINK_WriteReg(R5, 0x00000000)  returns 0x00 (0000ms, 0389ms total)
T5138 000:666 JLINK_WriteReg(R6, 0x00000000)  returns 0x00 (0000ms, 0389ms total)
T5138 000:666 JLINK_WriteReg(R7, 0x00000000)  returns 0x00 (0000ms, 0389ms total)
T5138 000:666 JLINK_WriteReg(R8, 0x00000000)  returns 0x00 (0000ms, 0389ms total)
T5138 000:666 JLINK_WriteReg(R9, 0x20000124)  returns 0x00 (0000ms, 0389ms total)
T5138 000:666 JLINK_WriteReg(R10, 0x00000000)  returns 0x00 (0000ms, 0389ms total)
T5138 000:666 JLINK_WriteReg(R11, 0x00000000)  returns 0x00 (0000ms, 0389ms total)
T5138 000:666 JLINK_WriteReg(R12, 0x00000000)  returns 0x00 (0000ms, 0389ms total)
T5138 000:666 JLINK_WriteReg(R13 (SP), 0x20001000)  returns 0x00 (0000ms, 0389ms total)
T5138 000:666 JLINK_WriteReg(R14, 0x20000001)  returns 0x00 (0000ms, 0389ms total)
T5138 000:666 JLINK_WriteReg(R15 (PC), 0x20000020)  returns 0x00 (0000ms, 0389ms total)
T5138 000:666 JLINK_WriteReg(XPSR, 0x01000000)  returns 0x00 (0000ms, 0389ms total)
T5138 000:666 JLINK_WriteReg(MSP, 0x20001000)  returns 0x00 (0000ms, 0389ms total)
T5138 000:666 JLINK_WriteReg(PSP, 0x20001000)  returns 0x00 (0000ms, 0389ms total)
T5138 000:666 JLINK_WriteReg(CFBP, 0x00000000)  returns 0x00 (0000ms, 0389ms total)
T5138 000:666 JLINK_SetBPEx(Addr = 0x20000000, Type = 0xFFFFFFF2)  returns 0x00000002 (0000ms, 0389ms total)
T5138 000:666 JLINK_Go() -- CPU_ReadMem(4 bytes @ 0xE0001000) (0004ms, 0393ms total)
T5138 000:670 JLINK_IsHalted() -- CPU_ReadMem(2 bytes @ 0x20000000)  returns TRUE (0005ms, 0398ms total)
T5138 000:675 JLINK_ReadReg(R15 (PC))  returns 0x20000000 (0000ms, 0393ms total)
T5138 000:675 JLINK_ClrBPEx(BPHandle = 0x00000002)  returns 0x00 (0000ms, 0393ms total)
T5138 000:675 JLINK_ReadReg(R0)  returns 0x00000001 (0000ms, 0393ms total)
T5138 000:675 JLINK_WriteReg(R0, 0x00000000)  returns 0x00 (0000ms, 0393ms total)
T5138 000:675 JLINK_WriteReg(R1, 0x00004000)  returns 0x00 (0000ms, 0393ms total)
T5138 000:675 JLINK_WriteReg(R2, 0x000000FF)  returns 0x00 (0000ms, 0393ms total)
T5138 000:675 JLINK_WriteReg(R3, 0x00000000)  returns 0x00 (0000ms, 0393ms total)
T5138 000:675 JLINK_WriteReg(R4, 0x00000000)  returns 0x00 (0000ms, 0393ms total)
T5138 000:675 JLINK_WriteReg(R5, 0x00000000)  returns 0x00 (0000ms, 0393ms total)
T5138 000:675 JLINK_WriteReg(R6, 0x00000000)  returns 0x00 (0000ms, 0393ms total)
T5138 000:675 JLINK_WriteReg(R7, 0x00000000)  returns 0x00 (0000ms, 0393ms total)
T5138 000:675 JLINK_WriteReg(R8, 0x00000000)  returns 0x00 (0000ms, 0393ms total)
T5138 000:675 JLINK_WriteReg(R9, 0x20000124)  returns 0x00 (0000ms, 0393ms total)
T5138 000:675 JLINK_WriteReg(R10, 0x00000000)  returns 0x00 (0000ms, 0393ms total)
T5138 000:675 JLINK_WriteReg(R11, 0x00000000)  returns 0x00 (0000ms, 0393ms total)
T5138 000:675 JLINK_WriteReg(R12, 0x00000000)  returns 0x00 (0000ms, 0393ms total)
T5138 000:675 JLINK_WriteReg(R13 (SP), 0x20001000)  returns 0x00 (0000ms, 0393ms total)
T5138 000:675 JLINK_WriteReg(R14, 0x20000001)  returns 0x00 (0000ms, 0393ms total)
T5138 000:675 JLINK_WriteReg(R15 (PC), 0x20000070)  returns 0x00 (0000ms, 0393ms total)
T5138 000:675 JLINK_WriteReg(XPSR, 0x01000000)  returns 0x00 (0000ms, 0393ms total)
T5138 000:675 JLINK_WriteReg(MSP, 0x20001000)  returns 0x00 (0000ms, 0393ms total)
T5138 000:675 JLINK_WriteReg(PSP, 0x20001000)  returns 0x00 (0000ms, 0393ms total)
T5138 000:675 JLINK_WriteReg(CFBP, 0x00000000)  returns 0x00 (0000ms, 0393ms total)
T5138 000:675 JLINK_SetBPEx(Addr = 0x20000000, Type = 0xFFFFFFF2)  returns 0x00000003 (0000ms, 0393ms total)
T5138 000:675 JLINK_Go() -- CPU_ReadMem(4 bytes @ 0xE0001000) (0003ms, 0396ms total)
T5138 000:678 JLINK_IsHalted()  returns FALSE (0001ms, 0397ms total)
T5138 000:710 JLINK_IsHalted()  returns FALSE (0001ms, 0397ms total)
T5138 000:712 JLINK_IsHalted()  returns FALSE (0001ms, 0397ms total)
T5138 000:715 JLINK_IsHalted() -- CPU_ReadMem(2 bytes @ 0x20000000)  returns TRUE (0004ms, 0400ms total)
T5138 000:719 JLINK_ReadReg(R15 (PC))  returns 0x20000000 (0000ms, 0396ms total)
T5138 000:719 JLINK_ClrBPEx(BPHandle = 0x00000003)  returns 0x00 (0000ms, 0396ms total)
T5138 000:719 JLINK_ReadReg(R0)  returns 0x00000000 (0000ms, 0396ms total)
T5138 000:719 JLINK_WriteReg(R0, 0x00004000)  returns 0x00 (0000ms, 0396ms total)
T5138 000:719 JLINK_WriteReg(R1, 0x00004000)  returns 0x00 (0000ms, 0396ms total)
T5138 000:719 JLINK_WriteReg(R2, 0x000000FF)  returns 0x00 (0000ms, 0396ms total)
T5138 000:719 JLINK_WriteReg(R3, 0x00000000)  returns 0x00 (0000ms, 0396ms total)
T5138 000:719 JLINK_WriteReg(R4, 0x00000000)  returns 0x00 (0000ms, 0396ms total)
T5138 000:719 JLINK_WriteReg(R5, 0x00000000)  returns 0x00 (0000ms, 0396ms total)
T5138 000:719 JLINK_WriteReg(R6, 0x00000000)  returns 0x00 (0000ms, 0396ms total)
T5138 000:719 JLINK_WriteReg(R7, 0x00000000)  returns 0x00 (0000ms, 0396ms total)
T5138 000:719 JLINK_WriteReg(R8, 0x00000000)  returns 0x00 (0000ms, 0396ms total)
T5138 000:719 JLINK_WriteReg(R9, 0x20000124)  returns 0x00 (0000ms, 0396ms total)
T5138 000:719 JLINK_WriteReg(R10, 0x00000000)  returns 0x00 (0000ms, 0396ms total)
T5138 000:720 JLINK_WriteReg(R11, 0x00000000)  returns 0x00 (0000ms, 0397ms total)
T5138 000:720 JLINK_WriteReg(R12, 0x00000000)  returns 0x00 (0000ms, 0397ms total)
T5138 000:720 JLINK_WriteReg(R13 (SP), 0x20001000)  returns 0x00 (0000ms, 0397ms total)
T5138 000:720 JLINK_WriteReg(R14, 0x20000001)  returns 0x00 (0000ms, 0397ms total)
T5138 000:720 JLINK_WriteReg(R15 (PC), 0x20000020)  returns 0x00 (0000ms, 0397ms total)
T5138 000:720 JLINK_WriteReg(XPSR, 0x01000000)  returns 0x00 (0000ms, 0397ms total)
T5138 000:720 JLINK_WriteReg(MSP, 0x20001000)  returns 0x00 (0000ms, 0397ms total)
T5138 000:720 JLINK_WriteReg(PSP, 0x20001000)  returns 0x00 (0000ms, 0397ms total)
T5138 000:720 JLINK_WriteReg(CFBP, 0x00000000)  returns 0x00 (0000ms, 0397ms total)
T5138 000:720 JLINK_SetBPEx(Addr = 0x20000000, Type = 0xFFFFFFF2)  returns 0x00000004 (0000ms, 0397ms total)
T5138 000:720 JLINK_Go() -- CPU_ReadMem(4 bytes @ 0xE0001000) (0003ms, 0400ms total)
T5138 000:723 JLINK_IsHalted() -- CPU_ReadMem(2 bytes @ 0x20000000)  returns TRUE (0004ms, 0404ms total)
T5138 000:727 JLINK_ReadReg(R15 (PC))  returns 0x20000000 (0000ms, 0400ms total)
T5138 000:727 JLINK_ClrBPEx(BPHandle = 0x00000004)  returns 0x00 (0000ms, 0400ms total)
T5138 000:727 JLINK_ReadReg(R0)  returns 0x00000001 (0000ms, 0400ms total)
T5138 000:727 JLINK_WriteReg(R0, 0x00004000)  returns 0x00 (0000ms, 0400ms total)
T5138 000:727 JLINK_WriteReg(R1, 0x00004000)  returns 0x00 (0000ms, 0400ms total)
T5138 000:727 JLINK_WriteReg(R2, 0x000000FF)  returns 0x00 (0000ms, 0400ms total)
T5138 000:727 JLINK_WriteReg(R3, 0x00000000)  returns 0x00 (0000ms, 0400ms total)
T5138 000:727 JLINK_WriteReg(R4, 0x00000000)  returns 0x00 (0000ms, 0400ms total)
T5138 000:727 JLINK_WriteReg(R5, 0x00000000)  returns 0x00 (0000ms, 0400ms total)
T5138 000:727 JLINK_WriteReg(R6, 0x00000000)  returns 0x00 (0000ms, 0400ms total)
T5138 000:727 JLINK_WriteReg(R7, 0x00000000)  returns 0x00 (0000ms, 0400ms total)
T5138 000:727 JLINK_WriteReg(R8, 0x00000000)  returns 0x00 (0000ms, 0400ms total)
T5138 000:727 JLINK_WriteReg(R9, 0x20000124)  returns 0x00 (0000ms, 0400ms total)
T5138 000:727 JLINK_WriteReg(R10, 0x00000000)  returns 0x00 (0000ms, 0400ms total)
T5138 000:727 JLINK_WriteReg(R11, 0x00000000)  returns 0x00 (0000ms, 0400ms total)
T5138 000:727 JLINK_WriteReg(R12, 0x00000000)  returns 0x00 (0000ms, 0400ms total)
T5138 000:727 JLINK_WriteReg(R13 (SP), 0x20001000)  returns 0x00 (0000ms, 0400ms total)
T5138 000:727 JLINK_WriteReg(R14, 0x20000001)  returns 0x00 (0000ms, 0400ms total)
T5138 000:727 JLINK_WriteReg(R15 (PC), 0x20000070)  returns 0x00 (0000ms, 0400ms total)
T5138 000:727 JLINK_WriteReg(XPSR, 0x01000000)  returns 0x00 (0000ms, 0400ms total)
T5138 000:727 JLINK_WriteReg(MSP, 0x20001000)  returns 0x00 (0000ms, 0400ms total)
T5138 000:727 JLINK_WriteReg(PSP, 0x20001000)  returns 0x00 (0000ms, 0400ms total)
T5138 000:727 JLINK_WriteReg(CFBP, 0x00000000)  returns 0x00 (0000ms, 0400ms total)
T5138 000:727 JLINK_SetBPEx(Addr = 0x20000000, Type = 0xFFFFFFF2)  returns 0x00000005 (0000ms, 0400ms total)
T5138 000:727 JLINK_Go() -- CPU_ReadMem(4 bytes @ 0xE0001000) (0004ms, 0404ms total)
T5138 000:731 JLINK_IsHalted()  returns FALSE (0001ms, 0405ms total)
T5138 000:737 JLINK_IsHalted()  returns FALSE (0001ms, 0405ms total)
T5138 000:740 JLINK_IsHalted()  returns FALSE (0001ms, 0405ms total)
T5138 000:742 JLINK_IsHalted()  returns FALSE (0001ms, 0405ms total)
T5138 000:744 JLINK_IsHalted()  returns FALSE (0001ms, 0405ms total)
T5138 000:747 JLINK_IsHalted()  returns FALSE (0002ms, 0406ms total)
T5138 000:755 JLINK_IsHalted()  returns FALSE (0001ms, 0405ms total)
T5138 000:757 JLINK_IsHalted()  returns FALSE (0001ms, 0405ms total)
T5138 000:759 JLINK_IsHalted()  returns FALSE (0001ms, 0405ms total)
T5138 000:761 JLINK_IsHalted()  returns FALSE (0001ms, 0405ms total)
T5138 000:765 JLINK_IsHalted() -- CPU_ReadMem(2 bytes @ 0x20000000)  returns TRUE (0004ms, 0408ms total)
T5138 000:769 JLINK_ReadReg(R15 (PC))  returns 0x20000000 (0000ms, 0404ms total)
T5138 000:769 JLINK_ClrBPEx(BPHandle = 0x00000005)  returns 0x00 (0000ms, 0404ms total)
T5138 000:769 JLINK_ReadReg(R0)  returns 0x00000000 (0000ms, 0404ms total)
T5138 000:769 JLINK_WriteReg(R0, 0x00000001)  returns 0x00 (0000ms, 0404ms total)
T5138 000:769 JLINK_WriteReg(R1, 0x00004000)  returns 0x00 (0000ms, 0404ms total)
T5138 000:769 JLINK_WriteReg(R2, 0x000000FF)  returns 0x00 (0000ms, 0404ms total)
T5138 000:769 JLINK_WriteReg(R3, 0x00000000)  returns 0x00 (0000ms, 0404ms total)
T5138 000:769 JLINK_WriteReg(R4, 0x00000000)  returns 0x00 (0000ms, 0404ms total)
T5138 000:769 JLINK_WriteReg(R5, 0x00000000)  returns 0x00 (0000ms, 0404ms total)
T5138 000:769 JLINK_WriteReg(R6, 0x00000000)  returns 0x00 (0000ms, 0404ms total)
T5138 000:769 JLINK_WriteReg(R7, 0x00000000)  returns 0x00 (0000ms, 0404ms total)
T5138 000:769 JLINK_WriteReg(R8, 0x00000000)  returns 0x00 (0000ms, 0404ms total)
T5138 000:769 JLINK_WriteReg(R9, 0x20000124)  returns 0x00 (0000ms, 0404ms total)
T5138 000:769 JLINK_WriteReg(R10, 0x00000000)  returns 0x00 (0000ms, 0404ms total)
T5138 000:769 JLINK_WriteReg(R11, 0x00000000)  returns 0x00 (0000ms, 0404ms total)
T5138 000:769 JLINK_WriteReg(R12, 0x00000000)  returns 0x00 (0000ms, 0404ms total)
T5138 000:769 JLINK_WriteReg(R13 (SP), 0x20001000)  returns 0x00 (0000ms, 0404ms total)
T5138 000:769 JLINK_WriteReg(R14, 0x20000001)  returns 0x00 (0000ms, 0404ms total)
T5138 000:769 JLINK_WriteReg(R15 (PC), 0x20000052)  returns 0x00 (0000ms, 0404ms total)
T5138 000:769 JLINK_WriteReg(XPSR, 0x01000000)  returns 0x00 (0000ms, 0404ms total)
T5138 000:769 JLINK_WriteReg(MSP, 0x20001000)  returns 0x00 (0000ms, 0404ms total)
T5138 000:769 JLINK_WriteReg(PSP, 0x20001000)  returns 0x00 (0000ms, 0404ms total)
T5138 000:769 JLINK_WriteReg(CFBP, 0x00000000)  returns 0x00 (0000ms, 0404ms total)
T5138 000:769 JLINK_SetBPEx(Addr = 0x20000000, Type = 0xFFFFFFF2)  returns 0x00000006 (0000ms, 0404ms total)
T5138 000:769 JLINK_Go() -- CPU_ReadMem(4 bytes @ 0xE0001000) (0004ms, 0408ms total)
T5138 000:773 JLINK_IsHalted() -- CPU_ReadMem(2 bytes @ 0x20000000)  returns TRUE (0004ms, 0412ms total)
T5138 000:777 JLINK_ReadReg(R15 (PC))  returns 0x20000000 (0000ms, 0408ms total)
T5138 000:777 JLINK_ClrBPEx(BPHandle = 0x00000006)  returns 0x00 (0000ms, 0408ms total)
T5138 000:777 JLINK_ReadReg(R0)  returns 0x00000000 (0000ms, 0408ms total)
T5138 000:841 JLINK_WriteMem(0x20000000, 0x0128 Bytes, ...) - Data: 00 BE 0A E0 0D 78 2D 06 68 40 08 24 40 00 00 D3 ... -- CPU_WriteMem(296 bytes @ 0x20000000)  returns 0x128 (0002ms, 0410ms total)
T5138 000:843 JLINK_WriteReg(R0, 0x00000000)  returns 0x00 (0000ms, 0410ms total)
T5138 000:843 JLINK_WriteReg(R1, 0x00B71B00)  returns 0x00 (0000ms, 0410ms total)
T5138 000:843 JLINK_WriteReg(R2, 0x00000002)  returns 0x00 (0000ms, 0410ms total)
T5138 000:843 JLINK_WriteReg(R3, 0x00000000)  returns 0x00 (0000ms, 0410ms total)
T5138 000:843 JLINK_WriteReg(R4, 0x00000000)  returns 0x00 (0000ms, 0410ms total)
T5138 000:843 JLINK_WriteReg(R5, 0x00000000)  returns 0x00 (0000ms, 0410ms total)
T5138 000:843 JLINK_WriteReg(R6, 0x00000000)  returns 0x00 (0000ms, 0410ms total)
T5138 000:843 JLINK_WriteReg(R7, 0x00000000)  returns 0x00 (0000ms, 0410ms total)
T5138 000:843 JLINK_WriteReg(R8, 0x00000000)  returns 0x00 (0000ms, 0410ms total)
T5138 000:843 JLINK_WriteReg(R9, 0x20000124)  returns 0x00 (0000ms, 0410ms total)
T5138 000:843 JLINK_WriteReg(R10, 0x00000000)  returns 0x00 (0000ms, 0410ms total)
T5138 000:844 JLINK_WriteReg(R11, 0x00000000)  returns 0x00 (0000ms, 0411ms total)
T5138 000:844 JLINK_WriteReg(R12, 0x00000000)  returns 0x00 (0000ms, 0411ms total)
T5138 000:844 JLINK_WriteReg(R13 (SP), 0x20001000)  returns 0x00 (0000ms, 0411ms total)
T5138 000:844 JLINK_WriteReg(R14, 0x20000001)  returns 0x00 (0000ms, 0411ms total)
T5138 000:844 JLINK_WriteReg(R15 (PC), 0x20000038)  returns 0x00 (0000ms, 0411ms total)
T5138 000:844 JLINK_WriteReg(XPSR, 0x01000000)  returns 0x00 (0000ms, 0411ms total)
T5138 000:844 JLINK_WriteReg(MSP, 0x20001000)  returns 0x00 (0000ms, 0411ms total)
T5138 000:844 JLINK_WriteReg(PSP, 0x20001000)  returns 0x00 (0000ms, 0411ms total)
T5138 000:844 JLINK_WriteReg(CFBP, 0x00000000)  returns 0x00 (0000ms, 0411ms total)
T5138 000:844 JLINK_SetBPEx(Addr = 0x20000000, Type = 0xFFFFFFF2) -- CPU_ReadMem(2 bytes @ 0x20000000)  returns 0x00000007 (0002ms, 0413ms total)
T5138 000:846 JLINK_Go() -- CPU_WriteMem(2 bytes @ 0x20000000) -- CPU_ReadMem(4 bytes @ 0xE0001000) (0007ms, 0420ms total)
T5138 000:853 JLINK_IsHalted() -- CPU_ReadMem(2 bytes @ 0x20000000)  returns TRUE (0005ms, 0425ms total)
T5138 000:858 JLINK_ReadReg(R15 (PC))  returns 0x20000000 (0000ms, 0420ms total)
T5138 000:858 JLINK_ClrBPEx(BPHandle = 0x00000007)  returns 0x00 (0000ms, 0420ms total)
T5138 000:858 JLINK_ReadReg(R0)  returns 0x00000000 (0000ms, 0420ms total)
T5138 000:859 JLINK_WriteMem(0x20000128, 0x0400 Bytes, ...) - Data: F0 9B 00 20 01 02 00 00 15 02 00 00 17 02 00 00 ... -- CPU_WriteMem(1024 bytes @ 0x20000128)  returns 0x400 (0004ms, 0424ms total)
T5138 000:863 JLINK_WriteReg(R0, 0x00000000)  returns 0x00 (0000ms, 0424ms total)
T5138 000:863 JLINK_WriteReg(R1, 0x00000400)  returns 0x00 (0000ms, 0424ms total)
T5138 000:863 JLINK_WriteReg(R2, 0x20000128)  returns 0x00 (0000ms, 0424ms total)
T5138 000:863 JLINK_WriteReg(R3, 0x00000000)  returns 0x00 (0000ms, 0424ms total)
T5138 000:863 JLINK_WriteReg(R4, 0x00000000)  returns 0x00 (0000ms, 0424ms total)
T5138 000:863 JLINK_WriteReg(R5, 0x00000000)  returns 0x00 (0000ms, 0424ms total)
T5138 000:863 JLINK_WriteReg(R6, 0x00000000)  returns 0x00 (0000ms, 0424ms total)
T5138 000:863 JLINK_WriteReg(R7, 0x00000000)  returns 0x00 (0000ms, 0424ms total)
T5138 000:863 JLINK_WriteReg(R8, 0x00000000)  returns 0x00 (0000ms, 0424ms total)
T5138 000:863 JLINK_WriteReg(R9, 0x20000124)  returns 0x00 (0000ms, 0424ms total)
T5138 000:863 JLINK_WriteReg(R10, 0x00000000)  returns 0x00 (0000ms, 0424ms total)
T5138 000:864 JLINK_WriteReg(R11, 0x00000000)  returns 0x00 (0000ms, 0424ms total)
T5138 000:864 JLINK_WriteReg(R12, 0x00000000)  returns 0x00 (0000ms, 0424ms total)
T5138 000:864 JLINK_WriteReg(R13 (SP), 0x20001000)  returns 0x00 (0000ms, 0424ms total)
T5138 000:864 JLINK_WriteReg(R14, 0x20000001)  returns 0x00 (0000ms, 0424ms total)
T5138 000:864 JLINK_WriteReg(R15 (PC), 0x20000092)  returns 0x00 (0000ms, 0424ms total)
T5138 000:864 JLINK_WriteReg(XPSR, 0x01000000)  returns 0x00 (0000ms, 0424ms total)
T5138 000:864 JLINK_WriteReg(MSP, 0x20001000)  returns 0x00 (0000ms, 0424ms total)
T5138 000:864 JLINK_WriteReg(PSP, 0x20001000)  returns 0x00 (0000ms, 0424ms total)
T5138 000:864 JLINK_WriteReg(CFBP, 0x00000000)  returns 0x00 (0000ms, 0424ms total)
T5138 000:864 JLINK_SetBPEx(Addr = 0x20000000, Type = 0xFFFFFFF2)  returns 0x00000008 (0000ms, 0424ms total)
T5138 000:864 JLINK_Go() -- CPU_ReadMem(4 bytes @ 0xE0001000) (0003ms, 0427ms total)
T5138 000:867 JLINK_IsHalted()  returns FALSE (0001ms, 0428ms total)
T5138 000:894 JLINK_IsHalted() -- CPU_ReadMem(2 bytes @ 0x20000000)  returns TRUE (0005ms, 0432ms total)
T5138 000:899 JLINK_ReadReg(R15 (PC))  returns 0x20000000 (0000ms, 0427ms total)
T5138 000:899 JLINK_ClrBPEx(BPHandle = 0x00000008)  returns 0x00 (0000ms, 0427ms total)
T5138 000:899 JLINK_ReadReg(R0)  returns 0x00000000 (0000ms, 0427ms total)
T5138 000:899 JLINK_WriteMem(0x20000128, 0x0400 Bytes, ...) - Data: 41 FF 06 F0 7B FA 02 F0 39 FF 05 F0 D3 FB 10 BD ... -- CPU_WriteMem(1024 bytes @ 0x20000128)  returns 0x400 (0005ms, 0432ms total)
T5138 000:904 JLINK_WriteReg(R0, 0x00000400)  returns 0x00 (0000ms, 0432ms total)
T5138 000:904 JLINK_WriteReg(R1, 0x00000400)  returns 0x00 (0000ms, 0432ms total)
T5138 000:904 JLINK_WriteReg(R2, 0x20000128)  returns 0x00 (0000ms, 0432ms total)
T5138 000:904 JLINK_WriteReg(R3, 0x00000000)  returns 0x00 (0000ms, 0432ms total)
T5138 000:904 JLINK_WriteReg(R4, 0x00000000)  returns 0x00 (0000ms, 0432ms total)
T5138 000:904 JLINK_WriteReg(R5, 0x00000000)  returns 0x00 (0000ms, 0432ms total)
T5138 000:904 JLINK_WriteReg(R6, 0x00000000)  returns 0x00 (0000ms, 0432ms total)
T5138 000:904 JLINK_WriteReg(R7, 0x00000000)  returns 0x00 (0000ms, 0432ms total)
T5138 000:904 JLINK_WriteReg(R8, 0x00000000)  returns 0x00 (0000ms, 0432ms total)
T5138 000:904 JLINK_WriteReg(R9, 0x20000124)  returns 0x00 (0000ms, 0432ms total)
T5138 000:904 JLINK_WriteReg(R10, 0x00000000)  returns 0x00 (0000ms, 0432ms total)
T5138 000:904 JLINK_WriteReg(R11, 0x00000000)  returns 0x00 (0000ms, 0432ms total)
T5138 000:904 JLINK_WriteReg(R12, 0x00000000)  returns 0x00 (0000ms, 0432ms total)
T5138 000:904 JLINK_WriteReg(R13 (SP), 0x20001000)  returns 0x00 (0000ms, 0432ms total)
T5138 000:904 JLINK_WriteReg(R14, 0x20000001)  returns 0x00 (0000ms, 0432ms total)
T5138 000:904 JLINK_WriteReg(R15 (PC), 0x20000092)  returns 0x00 (0000ms, 0432ms total)
T5138 000:904 JLINK_WriteReg(XPSR, 0x01000000)  returns 0x00 (0000ms, 0432ms total)
T5138 000:904 JLINK_WriteReg(MSP, 0x20001000)  returns 0x00 (0000ms, 0432ms total)
T5138 000:904 JLINK_WriteReg(PSP, 0x20001000)  returns 0x00 (0000ms, 0432ms total)
T5138 000:904 JLINK_WriteReg(CFBP, 0x00000000)  returns 0x00 (0000ms, 0432ms total)
T5138 000:904 JLINK_SetBPEx(Addr = 0x20000000, Type = 0xFFFFFFF2)  returns 0x00000009 (0000ms, 0432ms total)
T5138 000:904 JLINK_Go() -- CPU_ReadMem(4 bytes @ 0xE0001000) (0004ms, 0436ms total)
T5138 000:908 JLINK_IsHalted()  returns FALSE (0001ms, 0437ms total)
T5138 000:913 JLINK_IsHalted()  returns FALSE (0002ms, 0438ms total)
T5138 000:916 JLINK_IsHalted()  returns FALSE (0002ms, 0438ms total)
T5138 000:919 JLINK_IsHalted()  returns FALSE (0001ms, 0437ms total)
T5138 000:921 JLINK_IsHalted()  returns FALSE (0001ms, 0437ms total)
T5138 000:923 JLINK_IsHalted()  returns FALSE (0000ms, 0436ms total)
T5138 000:927 JLINK_IsHalted() -- CPU_ReadMem(2 bytes @ 0x20000000)  returns TRUE (0005ms, 0441ms total)
T5138 000:932 JLINK_ReadReg(R15 (PC))  returns 0x20000000 (0000ms, 0436ms total)
T5138 000:932 JLINK_ClrBPEx(BPHandle = 0x00000009)  returns 0x00 (0000ms, 0436ms total)
T5138 000:932 JLINK_ReadReg(R0)  returns 0x00000000 (0000ms, 0436ms total)
T5138 000:932 JLINK_WriteMem(0x20000128, 0x0400 Bytes, ...) - Data: 04 F0 50 00 A0 B1 0E E0 00 20 00 90 98 48 02 F0 ... -- CPU_WriteMem(1024 bytes @ 0x20000128)  returns 0x400 (0005ms, 0441ms total)
T5138 000:937 JLINK_WriteReg(R0, 0x00000800)  returns 0x00 (0000ms, 0441ms total)
T5138 000:937 JLINK_WriteReg(R1, 0x00000400)  returns 0x00 (0000ms, 0441ms total)
T5138 000:937 JLINK_WriteReg(R2, 0x20000128)  returns 0x00 (0000ms, 0441ms total)
T5138 000:937 JLINK_WriteReg(R3, 0x00000000)  returns 0x00 (0000ms, 0441ms total)
T5138 000:937 JLINK_WriteReg(R4, 0x00000000)  returns 0x00 (0000ms, 0441ms total)
T5138 000:937 JLINK_WriteReg(R5, 0x00000000)  returns 0x00 (0000ms, 0441ms total)
T5138 000:937 JLINK_WriteReg(R6, 0x00000000)  returns 0x00 (0000ms, 0441ms total)
T5138 000:937 JLINK_WriteReg(R7, 0x00000000)  returns 0x00 (0000ms, 0441ms total)
T5138 000:937 JLINK_WriteReg(R8, 0x00000000)  returns 0x00 (0000ms, 0441ms total)
T5138 000:937 JLINK_WriteReg(R9, 0x20000124)  returns 0x00 (0000ms, 0441ms total)
T5138 000:937 JLINK_WriteReg(R10, 0x00000000)  returns 0x00 (0000ms, 0441ms total)
T5138 000:937 JLINK_WriteReg(R11, 0x00000000)  returns 0x00 (0000ms, 0441ms total)
T5138 000:937 JLINK_WriteReg(R12, 0x00000000)  returns 0x00 (0000ms, 0441ms total)
T5138 000:937 JLINK_WriteReg(R13 (SP), 0x20001000)  returns 0x00 (0000ms, 0441ms total)
T5138 000:937 JLINK_WriteReg(R14, 0x20000001)  returns 0x00 (0000ms, 0441ms total)
T5138 000:937 JLINK_WriteReg(R15 (PC), 0x20000092)  returns 0x00 (0000ms, 0441ms total)
T5138 000:937 JLINK_WriteReg(XPSR, 0x01000000)  returns 0x00 (0000ms, 0441ms total)
T5138 000:937 JLINK_WriteReg(MSP, 0x20001000)  returns 0x00 (0000ms, 0441ms total)
T5138 000:937 JLINK_WriteReg(PSP, 0x20001000)  returns 0x00 (0000ms, 0441ms total)
T5138 000:937 JLINK_WriteReg(CFBP, 0x00000000)  returns 0x00 (0000ms, 0441ms total)
T5138 000:937 JLINK_SetBPEx(Addr = 0x20000000, Type = 0xFFFFFFF2)  returns 0x0000000A (0000ms, 0441ms total)
T5138 000:937 JLINK_Go() -- CPU_ReadMem(4 bytes @ 0xE0001000) (0004ms, 0445ms total)
T5138 000:941 JLINK_IsHalted()  returns FALSE (0001ms, 0446ms total)
T5138 000:948 JLINK_IsHalted()  returns FALSE (0002ms, 0447ms total)
T5138 000:955 JLINK_IsHalted()  returns FALSE (0002ms, 0447ms total)
T5138 000:958 JLINK_IsHalted()  returns FALSE (0002ms, 0447ms total)
T5138 000:961 JLINK_IsHalted() -- CPU_ReadMem(2 bytes @ 0x20000000)  returns TRUE (0005ms, 0450ms total)
T5138 000:966 JLINK_ReadReg(R15 (PC))  returns 0x20000000 (0000ms, 0445ms total)
T5138 000:966 JLINK_ClrBPEx(BPHandle = 0x0000000A)  returns 0x00 (0000ms, 0445ms total)
T5138 000:966 JLINK_ReadReg(R0)  returns 0x00000000 (0000ms, 0445ms total)
T5138 000:967 JLINK_WriteMem(0x20000128, 0x0400 Bytes, ...) - Data: F6 D1 00 BF F2 E7 10 B5 A5 48 01 F0 47 FA 01 20 ... -- CPU_WriteMem(1024 bytes @ 0x20000128)  returns 0x400 (0004ms, 0449ms total)
T5138 000:971 JLINK_WriteReg(R0, 0x00000C00)  returns 0x00 (0000ms, 0449ms total)
T5138 000:971 JLINK_WriteReg(R1, 0x00000400)  returns 0x00 (0000ms, 0449ms total)
T5138 000:971 JLINK_WriteReg(R2, 0x20000128)  returns 0x00 (0000ms, 0449ms total)
T5138 000:971 JLINK_WriteReg(R3, 0x00000000)  returns 0x00 (0000ms, 0449ms total)
T5138 000:971 JLINK_WriteReg(R4, 0x00000000)  returns 0x00 (0000ms, 0449ms total)
T5138 000:971 JLINK_WriteReg(R5, 0x00000000)  returns 0x00 (0000ms, 0449ms total)
T5138 000:971 JLINK_WriteReg(R6, 0x00000000)  returns 0x00 (0000ms, 0449ms total)
T5138 000:971 JLINK_WriteReg(R7, 0x00000000)  returns 0x00 (0000ms, 0449ms total)
T5138 000:971 JLINK_WriteReg(R8, 0x00000000)  returns 0x00 (0000ms, 0449ms total)
T5138 000:971 JLINK_WriteReg(R9, 0x20000124)  returns 0x00 (0000ms, 0449ms total)
T5138 000:971 JLINK_WriteReg(R10, 0x00000000)  returns 0x00 (0000ms, 0449ms total)
T5138 000:971 JLINK_WriteReg(R11, 0x00000000)  returns 0x00 (0000ms, 0449ms total)
T5138 000:971 JLINK_WriteReg(R12, 0x00000000)  returns 0x00 (0000ms, 0449ms total)
T5138 000:971 JLINK_WriteReg(R13 (SP), 0x20001000)  returns 0x00 (0000ms, 0449ms total)
T5138 000:971 JLINK_WriteReg(R14, 0x20000001)  returns 0x00 (0000ms, 0449ms total)
T5138 000:971 JLINK_WriteReg(R15 (PC), 0x20000092)  returns 0x00 (0000ms, 0449ms total)
T5138 000:971 JLINK_WriteReg(XPSR, 0x01000000)  returns 0x00 (0001ms, 0450ms total)
T5138 000:972 JLINK_WriteReg(MSP, 0x20001000)  returns 0x00 (0000ms, 0450ms total)
T5138 000:972 JLINK_WriteReg(PSP, 0x20001000)  returns 0x00 (0000ms, 0450ms total)
T5138 000:972 JLINK_WriteReg(CFBP, 0x00000000)  returns 0x00 (0000ms, 0450ms total)
T5138 000:972 JLINK_SetBPEx(Addr = 0x20000000, Type = 0xFFFFFFF2)  returns 0x0000000B (0000ms, 0450ms total)
T5138 000:972 JLINK_Go() -- CPU_ReadMem(4 bytes @ 0xE0001000) (0003ms, 0453ms total)
T5138 000:975 JLINK_IsHalted()  returns FALSE (0001ms, 0454ms total)
T5138 000:982 JLINK_IsHalted()  returns FALSE (0002ms, 0455ms total)
T5138 000:988 JLINK_IsHalted()  returns FALSE (0001ms, 0454ms total)
T5138 000:990 JLINK_IsHalted()  returns FALSE (0002ms, 0455ms total)
T5138 000:993 JLINK_IsHalted()  returns FALSE (0002ms, 0455ms total)
T5138 000:996 JLINK_IsHalted() -- CPU_ReadMem(2 bytes @ 0x20000000)  returns TRUE (0005ms, 0458ms total)
T5138 001:001 JLINK_ReadReg(R15 (PC))  returns 0x20000000 (0000ms, 0453ms total)
T5138 001:001 JLINK_ClrBPEx(BPHandle = 0x0000000B)  returns 0x00 (0000ms, 0453ms total)
T5138 001:001 JLINK_ReadReg(R0)  returns 0x00000000 (0000ms, 0453ms total)
T5138 001:002 JLINK_WriteMem(0x20000128, 0x0400 Bytes, ...) - Data: 46 48 02 F0 56 F8 AF F2 51 51 4C 20 00 F0 B8 FD ... -- CPU_WriteMem(1024 bytes @ 0x20000128)  returns 0x400 (0005ms, 0458ms total)
T5138 001:007 JLINK_WriteReg(R0, 0x00001000)  returns 0x00 (0000ms, 0458ms total)
T5138 001:007 JLINK_WriteReg(R1, 0x00000400)  returns 0x00 (0000ms, 0458ms total)
T5138 001:007 JLINK_WriteReg(R2, 0x20000128)  returns 0x00 (0000ms, 0458ms total)
T5138 001:007 JLINK_WriteReg(R3, 0x00000000)  returns 0x00 (0000ms, 0458ms total)
T5138 001:007 JLINK_WriteReg(R4, 0x00000000)  returns 0x00 (0000ms, 0458ms total)
T5138 001:007 JLINK_WriteReg(R5, 0x00000000)  returns 0x00 (0000ms, 0458ms total)
T5138 001:007 JLINK_WriteReg(R6, 0x00000000)  returns 0x00 (0000ms, 0458ms total)
T5138 001:007 JLINK_WriteReg(R7, 0x00000000)  returns 0x00 (0000ms, 0458ms total)
T5138 001:007 JLINK_WriteReg(R8, 0x00000000)  returns 0x00 (0000ms, 0458ms total)
T5138 001:007 JLINK_WriteReg(R9, 0x20000124)  returns 0x00 (0000ms, 0458ms total)
T5138 001:007 JLINK_WriteReg(R10, 0x00000000)  returns 0x00 (0000ms, 0458ms total)
T5138 001:007 JLINK_WriteReg(R11, 0x00000000)  returns 0x00 (0000ms, 0458ms total)
T5138 001:007 JLINK_WriteReg(R12, 0x00000000)  returns 0x00 (0000ms, 0458ms total)
T5138 001:007 JLINK_WriteReg(R13 (SP), 0x20001000)  returns 0x00 (0000ms, 0458ms total)
T5138 001:007 JLINK_WriteReg(R14, 0x20000001)  returns 0x00 (0000ms, 0458ms total)
T5138 001:007 JLINK_WriteReg(R15 (PC), 0x20000092)  returns 0x00 (0000ms, 0458ms total)
T5138 001:007 JLINK_WriteReg(XPSR, 0x01000000)  returns 0x00 (0000ms, 0458ms total)
T5138 001:007 JLINK_WriteReg(MSP, 0x20001000)  returns 0x00 (0000ms, 0458ms total)
T5138 001:007 JLINK_WriteReg(PSP, 0x20001000)  returns 0x00 (0000ms, 0458ms total)
T5138 001:007 JLINK_WriteReg(CFBP, 0x00000000)  returns 0x00 (0000ms, 0458ms total)
T5138 001:007 JLINK_SetBPEx(Addr = 0x20000000, Type = 0xFFFFFFF2)  returns 0x0000000C (0000ms, 0458ms total)
T5138 001:007 JLINK_Go() -- CPU_ReadMem(4 bytes @ 0xE0001000) (0004ms, 0462ms total)
T5138 001:011 JLINK_IsHalted()  returns FALSE (0002ms, 0464ms total)
T5138 001:025 JLINK_IsHalted()  returns FALSE (0002ms, 0464ms total)
T5138 001:028 JLINK_IsHalted()  returns FALSE (0002ms, 0464ms total)
T5138 001:031 JLINK_IsHalted() -- CPU_ReadMem(2 bytes @ 0x20000000)  returns TRUE (0004ms, 0466ms total)
T5138 001:035 JLINK_ReadReg(R15 (PC))  returns 0x20000000 (0001ms, 0463ms total)
T5138 001:036 JLINK_ClrBPEx(BPHandle = 0x0000000C)  returns 0x00 (0000ms, 0463ms total)
T5138 001:036 JLINK_ReadReg(R0)  returns 0x00000000 (0000ms, 0463ms total)
T5138 001:036 JLINK_WriteMem(0x20000128, 0x0400 Bytes, ...) - Data: 08 B1 01 20 00 E0 00 20 04 EA 01 05 0D B1 02 25 ... -- CPU_WriteMem(1024 bytes @ 0x20000128)  returns 0x400 (0005ms, 0468ms total)
T5138 001:041 JLINK_WriteReg(R0, 0x00001400)  returns 0x00 (0000ms, 0468ms total)
T5138 001:041 JLINK_WriteReg(R1, 0x00000400)  returns 0x00 (0000ms, 0468ms total)
T5138 001:041 JLINK_WriteReg(R2, 0x20000128)  returns 0x00 (0000ms, 0468ms total)
T5138 001:041 JLINK_WriteReg(R3, 0x00000000)  returns 0x00 (0000ms, 0468ms total)
T5138 001:041 JLINK_WriteReg(R4, 0x00000000)  returns 0x00 (0000ms, 0468ms total)
T5138 001:041 JLINK_WriteReg(R5, 0x00000000)  returns 0x00 (0000ms, 0468ms total)
T5138 001:041 JLINK_WriteReg(R6, 0x00000000)  returns 0x00 (0000ms, 0468ms total)
T5138 001:041 JLINK_WriteReg(R7, 0x00000000)  returns 0x00 (0000ms, 0468ms total)
T5138 001:041 JLINK_WriteReg(R8, 0x00000000)  returns 0x00 (0000ms, 0468ms total)
T5138 001:041 JLINK_WriteReg(R9, 0x20000124)  returns 0x00 (0000ms, 0468ms total)
T5138 001:041 JLINK_WriteReg(R10, 0x00000000)  returns 0x00 (0000ms, 0468ms total)
T5138 001:041 JLINK_WriteReg(R11, 0x00000000)  returns 0x00 (0000ms, 0468ms total)
T5138 001:041 JLINK_WriteReg(R12, 0x00000000)  returns 0x00 (0000ms, 0468ms total)
T5138 001:041 JLINK_WriteReg(R13 (SP), 0x20001000)  returns 0x00 (0000ms, 0468ms total)
T5138 001:041 JLINK_WriteReg(R14, 0x20000001)  returns 0x00 (0000ms, 0468ms total)
T5138 001:041 JLINK_WriteReg(R15 (PC), 0x20000092)  returns 0x00 (0000ms, 0468ms total)
T5138 001:041 JLINK_WriteReg(XPSR, 0x01000000)  returns 0x00 (0000ms, 0468ms total)
T5138 001:041 JLINK_WriteReg(MSP, 0x20001000)  returns 0x00 (0000ms, 0468ms total)
T5138 001:041 JLINK_WriteReg(PSP, 0x20001000)  returns 0x00 (0000ms, 0468ms total)
T5138 001:041 JLINK_WriteReg(CFBP, 0x00000000)  returns 0x00 (0000ms, 0468ms total)
T5138 001:041 JLINK_SetBPEx(Addr = 0x20000000, Type = 0xFFFFFFF2)  returns 0x0000000D (0000ms, 0468ms total)
T5138 001:041 JLINK_Go() -- CPU_ReadMem(4 bytes @ 0xE0001000) (0005ms, 0473ms total)
T5138 001:046 JLINK_IsHalted()  returns FALSE (0002ms, 0475ms total)
T5138 001:052 JLINK_IsHalted()  returns FALSE (0001ms, 0474ms total)
T5138 001:054 JLINK_IsHalted()  returns FALSE (0002ms, 0475ms total)
T5138 001:057 JLINK_IsHalted()  returns FALSE (0002ms, 0475ms total)
T5138 001:066 JLINK_IsHalted() -- CPU_ReadMem(2 bytes @ 0x20000000)  returns TRUE (0005ms, 0478ms total)
T5138 001:071 JLINK_ReadReg(R15 (PC))  returns 0x20000000 (0000ms, 0473ms total)
T5138 001:071 JLINK_ClrBPEx(BPHandle = 0x0000000D)  returns 0x00 (0000ms, 0473ms total)
T5138 001:071 JLINK_ReadReg(R0)  returns 0x00000000 (0000ms, 0473ms total)
T5138 001:072 JLINK_WriteMem(0x20000128, 0x0400 Bytes, ...) - Data: 30 BD 30 B5 04 46 0D 46 00 22 29 46 20 46 FF F7 ... -- CPU_WriteMem(1024 bytes @ 0x20000128)  returns 0x400 (0004ms, 0477ms total)
T5138 001:076 JLINK_WriteReg(R0, 0x00001800)  returns 0x00 (0000ms, 0477ms total)
T5138 001:076 JLINK_WriteReg(R1, 0x00000400)  returns 0x00 (0000ms, 0477ms total)
T5138 001:076 JLINK_WriteReg(R2, 0x20000128)  returns 0x00 (0000ms, 0477ms total)
T5138 001:076 JLINK_WriteReg(R3, 0x00000000)  returns 0x00 (0000ms, 0477ms total)
T5138 001:076 JLINK_WriteReg(R4, 0x00000000)  returns 0x00 (0001ms, 0478ms total)
T5138 001:077 JLINK_WriteReg(R5, 0x00000000)  returns 0x00 (0000ms, 0478ms total)
T5138 001:077 JLINK_WriteReg(R6, 0x00000000)  returns 0x00 (0000ms, 0478ms total)
T5138 001:077 JLINK_WriteReg(R7, 0x00000000)  returns 0x00 (0000ms, 0478ms total)
T5138 001:077 JLINK_WriteReg(R8, 0x00000000)  returns 0x00 (0000ms, 0478ms total)
T5138 001:077 JLINK_WriteReg(R9, 0x20000124)  returns 0x00 (0000ms, 0478ms total)
T5138 001:077 JLINK_WriteReg(R10, 0x00000000)  returns 0x00 (0000ms, 0478ms total)
T5138 001:077 JLINK_WriteReg(R11, 0x00000000)  returns 0x00 (0000ms, 0478ms total)
T5138 001:077 JLINK_WriteReg(R12, 0x00000000)  returns 0x00 (0000ms, 0478ms total)
T5138 001:077 JLINK_WriteReg(R13 (SP), 0x20001000)  returns 0x00 (0000ms, 0478ms total)
T5138 001:077 JLINK_WriteReg(R14, 0x20000001)  returns 0x00 (0000ms, 0478ms total)
T5138 001:077 JLINK_WriteReg(R15 (PC), 0x20000092)  returns 0x00 (0000ms, 0478ms total)
T5138 001:077 JLINK_WriteReg(XPSR, 0x01000000)  returns 0x00 (0000ms, 0478ms total)
T5138 001:077 JLINK_WriteReg(MSP, 0x20001000)  returns 0x00 (0000ms, 0478ms total)
T5138 001:077 JLINK_WriteReg(PSP, 0x20001000)  returns 0x00 (0000ms, 0478ms total)
T5138 001:077 JLINK_WriteReg(CFBP, 0x00000000)  returns 0x00 (0000ms, 0478ms total)
T5138 001:077 JLINK_SetBPEx(Addr = 0x20000000, Type = 0xFFFFFFF2)  returns 0x0000000E (0000ms, 0478ms total)
T5138 001:077 JLINK_Go() -- CPU_ReadMem(4 bytes @ 0xE0001000) (0003ms, 0481ms total)
T5138 001:081 JLINK_IsHalted()  returns FALSE (0001ms, 0483ms total)
T5138 001:088 JLINK_IsHalted()  returns FALSE (0001ms, 0483ms total)
T5138 001:090 JLINK_IsHalted()  returns FALSE (0002ms, 0484ms total)
T5138 001:093 JLINK_IsHalted()  returns FALSE (0002ms, 0484ms total)
T5138 001:096 JLINK_IsHalted()  returns FALSE (0002ms, 0484ms total)
T5138 001:099 JLINK_IsHalted()  returns FALSE (0001ms, 0485ms total)
T5138 001:105 JLINK_IsHalted() -- CPU_ReadMem(2 bytes @ 0x20000000)  returns TRUE (0005ms, 0489ms total)
T5138 001:110 JLINK_ReadReg(R15 (PC))  returns 0x20000000 (0000ms, 0484ms total)
T5138 001:110 JLINK_ClrBPEx(BPHandle = 0x0000000E)  returns 0x00 (0000ms, 0484ms total)
T5138 001:110 JLINK_ReadReg(R0)  returns 0x00000000 (0000ms, 0484ms total)
T5138 001:110 JLINK_WriteMem(0x20000128, 0x0400 Bytes, ...) - Data: 19 68 83 07 DC 0E FF 23 A3 40 99 43 83 07 DB 0E ... -- CPU_WriteMem(1024 bytes @ 0x20000128)  returns 0x400 (0005ms, 0489ms total)
T5138 001:115 JLINK_WriteReg(R0, 0x00001C00)  returns 0x00 (0000ms, 0489ms total)
T5138 001:115 JLINK_WriteReg(R1, 0x00000400)  returns 0x00 (0000ms, 0489ms total)
T5138 001:115 JLINK_WriteReg(R2, 0x20000128)  returns 0x00 (0000ms, 0489ms total)
T5138 001:115 JLINK_WriteReg(R3, 0x00000000)  returns 0x00 (0000ms, 0489ms total)
T5138 001:115 JLINK_WriteReg(R4, 0x00000000)  returns 0x00 (0000ms, 0489ms total)
T5138 001:115 JLINK_WriteReg(R5, 0x00000000)  returns 0x00 (0000ms, 0489ms total)
T5138 001:115 JLINK_WriteReg(R6, 0x00000000)  returns 0x00 (0000ms, 0489ms total)
T5138 001:115 JLINK_WriteReg(R7, 0x00000000)  returns 0x00 (0000ms, 0489ms total)
T5138 001:115 JLINK_WriteReg(R8, 0x00000000)  returns 0x00 (0000ms, 0489ms total)
T5138 001:115 JLINK_WriteReg(R9, 0x20000124)  returns 0x00 (0000ms, 0489ms total)
T5138 001:115 JLINK_WriteReg(R10, 0x00000000)  returns 0x00 (0000ms, 0489ms total)
T5138 001:115 JLINK_WriteReg(R11, 0x00000000)  returns 0x00 (0000ms, 0489ms total)
T5138 001:115 JLINK_WriteReg(R12, 0x00000000)  returns 0x00 (0000ms, 0489ms total)
T5138 001:115 JLINK_WriteReg(R13 (SP), 0x20001000)  returns 0x00 (0000ms, 0489ms total)
T5138 001:115 JLINK_WriteReg(R14, 0x20000001)  returns 0x00 (0000ms, 0489ms total)
T5138 001:115 JLINK_WriteReg(R15 (PC), 0x20000092)  returns 0x00 (0000ms, 0489ms total)
T5138 001:115 JLINK_WriteReg(XPSR, 0x01000000)  returns 0x00 (0000ms, 0489ms total)
T5138 001:115 JLINK_WriteReg(MSP, 0x20001000)  returns 0x00 (0000ms, 0489ms total)
T5138 001:115 JLINK_WriteReg(PSP, 0x20001000)  returns 0x00 (0000ms, 0489ms total)
T5138 001:115 JLINK_WriteReg(CFBP, 0x00000000)  returns 0x00 (0000ms, 0489ms total)
T5138 001:115 JLINK_SetBPEx(Addr = 0x20000000, Type = 0xFFFFFFF2)  returns 0x0000000F (0000ms, 0489ms total)
T5138 001:115 JLINK_Go() -- CPU_ReadMem(4 bytes @ 0xE0001000) (0005ms, 0494ms total)
T5138 001:120 JLINK_IsHalted()  returns FALSE (0001ms, 0495ms total)
T5138 001:134 JLINK_IsHalted()  returns FALSE (0002ms, 0496ms total)
T5138 001:137 JLINK_IsHalted()  returns FALSE (0001ms, 0495ms total)
T5138 001:142 JLINK_IsHalted() -- CPU_ReadMem(2 bytes @ 0x20000000)  returns TRUE (0004ms, 0498ms total)
T5138 001:147 JLINK_ReadReg(R15 (PC))  returns 0x20000000 (0000ms, 0494ms total)
T5138 001:147 JLINK_ClrBPEx(BPHandle = 0x0000000F)  returns 0x00 (0000ms, 0494ms total)
T5138 001:147 JLINK_ReadReg(R0)  returns 0x00000000 (0000ms, 0494ms total)
T5138 001:147 JLINK_WriteMem(0x20000128, 0x0400 Bytes, ...) - Data: 11 60 10 BD 10 B5 00 21 C0 F3 07 22 9F 4B 1A 44 ... -- CPU_WriteMem(1024 bytes @ 0x20000128)  returns 0x400 (0004ms, 0498ms total)
T5138 001:151 JLINK_WriteReg(R0, 0x00002000)  returns 0x00 (0000ms, 0498ms total)
T5138 001:152 JLINK_WriteReg(R1, 0x00000400)  returns 0x00 (0000ms, 0499ms total)
T5138 001:152 JLINK_WriteReg(R2, 0x20000128)  returns 0x00 (0000ms, 0499ms total)
T5138 001:152 JLINK_WriteReg(R3, 0x00000000)  returns 0x00 (0000ms, 0499ms total)
T5138 001:152 JLINK_WriteReg(R4, 0x00000000)  returns 0x00 (0000ms, 0499ms total)
T5138 001:152 JLINK_WriteReg(R5, 0x00000000)  returns 0x00 (0000ms, 0499ms total)
T5138 001:152 JLINK_WriteReg(R6, 0x00000000)  returns 0x00 (0000ms, 0499ms total)
T5138 001:152 JLINK_WriteReg(R7, 0x00000000)  returns 0x00 (0000ms, 0499ms total)
T5138 001:152 JLINK_WriteReg(R8, 0x00000000)  returns 0x00 (0000ms, 0499ms total)
T5138 001:152 JLINK_WriteReg(R9, 0x20000124)  returns 0x00 (0000ms, 0499ms total)
T5138 001:152 JLINK_WriteReg(R10, 0x00000000)  returns 0x00 (0000ms, 0499ms total)
T5138 001:152 JLINK_WriteReg(R11, 0x00000000)  returns 0x00 (0000ms, 0499ms total)
T5138 001:152 JLINK_WriteReg(R12, 0x00000000)  returns 0x00 (0000ms, 0499ms total)
T5138 001:152 JLINK_WriteReg(R13 (SP), 0x20001000)  returns 0x00 (0000ms, 0499ms total)
T5138 001:152 JLINK_WriteReg(R14, 0x20000001)  returns 0x00 (0000ms, 0499ms total)
T5138 001:152 JLINK_WriteReg(R15 (PC), 0x20000092)  returns 0x00 (0000ms, 0499ms total)
T5138 001:152 JLINK_WriteReg(XPSR, 0x01000000)  returns 0x00 (0000ms, 0499ms total)
T5138 001:152 JLINK_WriteReg(MSP, 0x20001000)  returns 0x00 (0000ms, 0499ms total)
T5138 001:152 JLINK_WriteReg(PSP, 0x20001000)  returns 0x00 (0000ms, 0499ms total)
T5138 001:152 JLINK_WriteReg(CFBP, 0x00000000)  returns 0x00 (0000ms, 0499ms total)
T5138 001:152 JLINK_SetBPEx(Addr = 0x20000000, Type = 0xFFFFFFF2)  returns 0x00000010 (0000ms, 0499ms total)
T5138 001:152 JLINK_Go() -- CPU_ReadMem(4 bytes @ 0xE0001000) (0005ms, 0504ms total)
T5138 001:157 JLINK_IsHalted()  returns FALSE (0001ms, 0505ms total)
T5138 001:159 JLINK_IsHalted()  returns FALSE (0002ms, 0506ms total)
T5138 001:165 JLINK_IsHalted()  returns FALSE (0001ms, 0505ms total)
T5138 001:167 JLINK_IsHalted()  returns FALSE (0002ms, 0506ms total)
T5138 001:197 JLINK_IsHalted() -- CPU_ReadMem(2 bytes @ 0x20000000)  returns TRUE (0004ms, 0508ms total)
T5138 001:201 JLINK_ReadReg(R15 (PC))  returns 0x20000000 (0000ms, 0504ms total)
T5138 001:201 JLINK_ClrBPEx(BPHandle = 0x00000010)  returns 0x00 (0000ms, 0504ms total)
T5138 001:201 JLINK_ReadReg(R0)  returns 0x00000000 (0000ms, 0504ms total)
T5138 001:203 JLINK_WriteMem(0x20000128, 0x0400 Bytes, ...) - Data: 05 E0 00 98 40 1E 00 90 00 98 00 B9 05 E0 A7 48 ... -- CPU_WriteMem(1024 bytes @ 0x20000128)  returns 0x400 (0004ms, 0508ms total)
T5138 001:207 JLINK_WriteReg(R0, 0x00002400)  returns 0x00 (0000ms, 0508ms total)
T5138 001:207 JLINK_WriteReg(R1, 0x00000400)  returns 0x00 (0000ms, 0508ms total)
T5138 001:207 JLINK_WriteReg(R2, 0x20000128)  returns 0x00 (0000ms, 0508ms total)
T5138 001:207 JLINK_WriteReg(R3, 0x00000000)  returns 0x00 (0000ms, 0508ms total)
T5138 001:207 JLINK_WriteReg(R4, 0x00000000)  returns 0x00 (0000ms, 0508ms total)
T5138 001:207 JLINK_WriteReg(R5, 0x00000000)  returns 0x00 (0000ms, 0508ms total)
T5138 001:207 JLINK_WriteReg(R6, 0x00000000)  returns 0x00 (0000ms, 0508ms total)
T5138 001:207 JLINK_WriteReg(R7, 0x00000000)  returns 0x00 (0000ms, 0508ms total)
T5138 001:207 JLINK_WriteReg(R8, 0x00000000)  returns 0x00 (0000ms, 0508ms total)
